# MHz S MA R 50
!   freq        S11       
 790.000  0.79099  -31.67
 790.804  0.78649  -32.55
 791.608  0.78591  -33.10
 792.412  0.78213  -33.90
 793.216  0.77854  -34.75
 794.020  0.77535  -35.39
 794.824  0.77104  -36.21
 795.628  0.76801  -36.90
 796.432  0.76316  -37.73
 797.236  0.76054  -38.36
 798.040  0.75729  -39.30
 798.844  0.75144  -40.09
 799.648  0.74706  -40.64
 800.452  0.74430  -41.57
 801.256  0.74002  -42.22
 802.060  0.73635  -42.89
 802.864  0.73225  -43.80
 803.668  0.72931  -44.55
 804.472  0.72394  -45.22
 805.276  0.71979  -46.19
 806.080  0.71548  -46.97
 806.884  0.71196  -47.75
 807.688  0.70770  -48.46
 808.492  0.70321  -49.30
 809.296  0.69869  -50.30
 810.101  0.69377  -51.07
 810.905  0.68872  -52.07
 811.709  0.68315  -52.91
 812.513  0.67834  -53.74
 813.317  0.67196  -54.71
 814.121  0.66693  -55.55
 814.925  0.66008  -56.39
 815.729  0.65434  -57.26
 816.533  0.64902  -58.16
 817.337  0.64162  -59.23
 818.141  0.63580  -60.08
 818.945  0.62999  -60.91
 819.749  0.62246  -61.67
 820.553  0.61596  -62.54
 821.357  0.60930  -63.44
 822.161  0.60230  -64.16
 822.965  0.59664  -65.15
 823.769  0.59032  -65.97
 824.573  0.58364  -66.96
 825.377  0.57666  -67.60
 826.181  0.57056  -68.65
 826.985  0.56435  -69.45
 827.789  0.55712  -70.39
 828.593  0.55203  -71.17
 829.397  0.54413  -72.33
 830.201  0.53719  -73.26
 831.005  0.53071  -74.39
 831.809  0.52202  -75.31
 832.613  0.51400  -76.14
 833.417  0.50653  -77.33
 834.221  0.49828  -78.23
 835.025  0.49023  -79.12
 835.829  0.48235  -80.02
 836.633  0.47409  -80.93
 837.437  0.46647  -81.87
 838.241  0.45838  -82.65
 839.045  0.45030  -83.83
 839.849  0.44319  -84.73
 840.653  0.43508  -85.48
 841.457  0.42812  -86.70
 842.261  0.41984  -87.52
 843.065  0.41268  -88.70
 843.869  0.40456  -89.28
 844.673  0.39748  -90.67
 845.477  0.39061  -91.62
 846.281  0.38273  -92.51
 847.085  0.37549  -93.78
 847.889  0.36730  -94.95
 848.693  0.35981  -96.03
 849.497  0.35180  -97.47
 850.302  0.34381  -98.87
 851.106  0.33564  -99.99
 851.910  0.32635 -101.65
 852.714  0.31695 -102.96
 853.518  0.30708 -104.70
 854.322  0.29704 -106.30
 855.126  0.28661 -107.76
 855.930  0.27554 -109.20
 856.734  0.26468 -110.72
 857.538  0.25374 -112.07
 858.342  0.24225 -113.42
 859.146  0.23131 -114.72
 859.950  0.22027 -116.01
 860.754  0.20930 -117.32
 861.558  0.19859 -118.37
 862.362  0.18799 -119.39
 863.166  0.17668 -120.29
 863.970  0.16697 -121.50
 864.774  0.15577 -122.58
 865.578  0.14551 -123.35
 866.382  0.13503 -124.33
 867.186  0.12533 -124.95
 867.990  0.11568 -125.50
 868.794  0.10614 -125.87
 869.598  0.09702 -126.30
 870.402  0.08823 -126.37
 871.206  0.07973 -126.49
 872.010  0.07125 -126.00
 872.814  0.06323 -125.30
 873.618  0.05508 -124.30
 874.422  0.04748 -122.93
 875.226  0.04021 -120.86
 876.030  0.03325 -117.35
 876.834  0.02696 -111.27
 877.638  0.02109 -101.29
 878.442  0.01666  -87.07
 879.246  0.01426  -65.74
 880.050  0.01493  -40.15
 880.854  0.01738  -23.26
 881.658  0.02094  -10.59
 882.462  0.02491   -3.00
 883.266  0.02927    2.55
 884.070  0.03304    6.71
 884.874  0.03732   10.21
 885.678  0.04112   13.72
 886.482  0.04501   15.95
 887.286  0.04911   18.41
 888.090  0.05334   19.92
 888.894  0.05803   22.04
 889.698  0.06277   23.78
 890.503  0.06806   25.29
 891.307  0.07330   26.23
 892.111  0.07860   26.93
 892.915  0.08486   27.58
 893.719  0.09047   28.24
 894.523  0.09668   28.18
 895.327  0.10229   28.01
 896.131  0.10777   27.62
 896.935  0.11328   27.29
 897.739  0.11900   26.89
 898.543  0.12421   26.66
 899.347  0.12901   26.47
 900.151  0.13452   25.97
 900.955  0.14003   25.79
 901.759  0.14500   25.55
 902.563  0.15036   24.89
 903.367  0.15590   24.53
 904.171  0.16133   24.07
 904.975  0.16678   23.52
 905.779  0.17240   22.78
 906.583  0.17750   22.22
 907.387  0.18323   21.62
 908.191  0.18857   20.99
 908.995  0.19427   20.43
 909.799  0.19908   19.55
 910.603  0.20427   18.82
 911.407  0.20847   18.07
 912.211  0.21457   17.15
 913.015  0.21866   16.36
 913.819  0.22353   15.57
 914.623  0.22744   14.88
 915.427  0.23268   13.89
 916.231  0.23677   13.02
 917.035  0.24049   12.32
 917.839  0.24442   11.55
 918.643  0.24802   10.71
 919.447  0.25171   10.07
 920.251  0.25585    9.22
 921.055  0.25854    8.68
 921.859  0.26224    8.00
 922.663  0.26536    7.54
 923.467  0.26888    6.83
 924.271  0.27214    6.23
 925.075  0.27554    5.72
 925.879  0.27841    5.46
 926.683  0.28274    4.95
 927.487  0.28686    4.21
 928.291  0.29054    3.78
 929.095  0.29501    3.16
 929.899  0.29955    2.56
 930.704  0.30484    1.78
 931.508  0.30924    1.41
 932.312  0.31386    0.62
 933.116  0.31864   -0.22
 933.920  0.32269   -1.02
 934.724  0.32697   -1.75
 935.528  0.33078   -2.74
 936.332  0.33472   -3.57
 937.136  0.33816   -4.41
 937.940  0.34164   -5.39
 938.744  0.34511   -6.35
 939.548  0.34818   -7.05
 940.352  0.35099   -7.80
 941.156  0.35380   -8.54
 941.960  0.35655   -9.58
 942.764  0.35893  -10.26
 943.568  0.36222  -11.09
 944.372  0.36487  -12.08
 945.176  0.36713  -12.84
 945.980  0.36942  -13.79
 946.784  0.37253  -14.51
 947.588  0.37449  -15.42
 948.392  0.37625  -16.44
 949.196  0.37877  -17.13
 950.000  0.38043  -18.16
