# MHz S MA R 50
!   freq        S11       
 790.000  0.76713  -35.08
 790.804  0.76395  -35.97
 791.608  0.76002  -36.68
 792.412  0.75624  -37.61
 793.216  0.75346  -38.35
 794.020  0.74992  -38.97
 794.824  0.74390  -40.08
 795.628  0.74039  -40.60
 796.432  0.73417  -41.49
 797.236  0.73085  -42.19
 798.040  0.72650  -43.11
 798.844  0.71987  -43.97
 799.648  0.71574  -44.64
 800.452  0.71118  -45.48
 801.256  0.70610  -46.15
 802.060  0.70196  -47.03
 802.864  0.69636  -47.83
 803.668  0.69306  -48.62
 804.472  0.68679  -49.41
 805.276  0.68240  -50.39
 806.080  0.67734  -51.17
 806.884  0.67318  -51.98
 807.688  0.66830  -52.77
 808.492  0.66297  -53.61
 809.296  0.65738  -54.65
 810.101  0.65186  -55.44
 810.905  0.64595  -56.56
 811.709  0.63972  -57.38
 812.513  0.63375  -58.21
 813.317  0.62647  -59.21
 814.121  0.62110  -60.04
 814.925  0.61289  -60.96
 815.729  0.60694  -62.03
 816.533  0.60019  -62.73
 817.337  0.59192  -63.84
 818.141  0.58563  -64.60
 818.945  0.57877  -65.74
 819.749  0.57141  -66.57
 820.553  0.56377  -67.29
 821.357  0.55645  -68.14
 822.161  0.54927  -69.00
 822.965  0.54238  -70.06
 823.769  0.53543  -70.70
 824.573  0.52811  -71.71
 825.377  0.52128  -72.57
 826.181  0.51489  -73.57
 826.985  0.50785  -74.18
 827.789  0.50035  -75.31
 828.593  0.49496  -76.15
 829.397  0.48729  -77.19
 830.201  0.47995  -78.21
 831.005  0.47338  -79.34
 831.809  0.46510  -80.09
 832.613  0.45724  -81.32
 833.417  0.44953  -82.43
 834.221  0.44075  -83.49
 835.025  0.43241  -84.43
 835.829  0.42378  -85.54
 836.633  0.41524  -86.46
 837.437  0.40711  -87.56
 838.241  0.39835  -88.36
 839.045  0.38995  -89.57
 839.849  0.38192  -90.62
 840.653  0.37378  -91.46
 841.457  0.36544  -92.54
 842.261  0.35623  -93.68
 843.065  0.34798  -94.82
 843.869  0.33936  -95.52
 844.673  0.33106  -96.96
 845.477  0.32316  -98.01
 846.281  0.31443  -99.30
 847.085  0.30587 -100.40
 847.889  0.29685 -101.75
 848.693  0.28777 -103.05
 849.497  0.27906 -104.28
 850.302  0.26962 -105.73
 851.106  0.26055 -107.18
 851.910  0.25104 -108.70
 852.714  0.24061 -110.23
 853.518  0.22964 -111.90
 854.322  0.21964 -113.58
 855.126  0.20841 -115.27
 855.930  0.19694 -116.61
 856.734  0.18559 -118.28
 857.538  0.17434 -119.34
 858.342  0.16291 -120.76
 859.146  0.15201 -121.85
 859.950  0.14096 -123.00
 860.754  0.13066 -124.09
 861.558  0.12062 -125.09
 862.362  0.11031 -126.11
 863.166  0.10007 -126.88
 863.970  0.09062 -127.86
 864.774  0.08061 -128.70
 865.578  0.07149 -129.01
 866.382  0.06211 -129.34
 867.186  0.05334 -129.34
 867.990  0.04427 -129.20
 868.794  0.03580 -127.75
 869.598  0.02782 -125.60
 870.402  0.02008 -121.26
 871.206  0.01297 -110.19
 872.010  0.00767  -80.30
 872.814  0.00773  -24.70
 873.618  0.01318    4.48
 874.422  0.01957   13.87
 875.226  0.02599   19.13
 876.030  0.03289   20.72
 876.834  0.03974   21.35
 877.638  0.04595   21.75
 878.442  0.05179   21.81
 879.246  0.05723   21.66
 880.050  0.06322   21.50
 880.854  0.06815   20.64
 881.658  0.07321   20.60
 882.462  0.07744   20.40
 883.266  0.08198   20.10
 884.070  0.08599   19.76
 884.874  0.09003   19.78
 885.678  0.09404   20.08
 886.482  0.09757   20.41
 887.286  0.10182   20.78
 888.090  0.10568   21.01
 888.894  0.11023   21.54
 889.698  0.11491   22.02
 890.503  0.11967   22.17
 891.307  0.12472   22.00
 892.111  0.12990   22.32
 892.915  0.13548   22.07
 893.719  0.14076   21.79
 894.523  0.14594   21.42
 895.327  0.15131   20.95
 896.131  0.15544   20.32
 896.935  0.16056   19.97
 897.739  0.16543   19.41
 898.543  0.16918   19.01
 899.347  0.17316   18.47
 900.151  0.17741   18.41
 900.955  0.18205   17.83
 901.759  0.18585   17.79
 902.563  0.19032   17.19
 903.367  0.19529   17.02
 904.171  0.19984   16.67
 904.975  0.20466   16.12
 905.779  0.20943   15.41
 906.583  0.21425   15.31
 907.387  0.21887   14.68
 908.191  0.22294   14.22
 908.995  0.22774   13.72
 909.799  0.23225   13.10
 910.603  0.23693   12.25
 911.407  0.24119   11.77
 912.211  0.24614   11.24
 913.015  0.24999   10.41
 913.819  0.25438    9.79
 914.623  0.25793    9.12
 915.427  0.26179    8.42
 916.231  0.26576    7.65
 917.035  0.26902    6.90
 917.839  0.27302    6.44
 918.643  0.27584    5.54
 919.447  0.27947    4.97
 920.251  0.28238    4.39
 921.055  0.28573    3.65
 921.859  0.28841    3.09
 922.663  0.29152    2.55
 923.467  0.29410    1.90
 924.271  0.29714    1.54
 925.075  0.29963    0.99
 925.879  0.30279    0.59
 926.683  0.30631    0.21
 927.487  0.31009   -0.58
 928.291  0.31323   -0.84
 929.095  0.31739   -1.53
 929.899  0.32184   -1.84
 930.704  0.32569   -2.68
 931.508  0.32942   -3.30
 932.312  0.33382   -3.89
 933.116  0.33812   -4.43
 933.920  0.34208   -5.21
 934.724  0.34603   -6.04
 935.528  0.34987   -7.01
 936.332  0.35331   -7.78
 937.136  0.35662   -8.62
 937.940  0.36025   -9.36
 938.744  0.36315  -10.44
 939.548  0.36629  -11.08
 940.352  0.36845  -11.88
 941.156  0.37164  -12.83
 941.960  0.37433  -13.82
 942.764  0.37637  -14.51
 943.568  0.37897  -15.15
 944.372  0.38212  -16.13
 945.176  0.38368  -16.94
 945.980  0.38515  -17.95
 946.784  0.38754  -18.62
 947.588  0.38951  -19.57
 948.392  0.39093  -20.47
 949.196  0.39224  -21.27
 950.000  0.39344  -22.33
