Freq (MHz),re(S11),im(S11),re(Z),im(Z)
790,000,0,62528,-0,44137,61,782,-131,665
790,804,0,61277,-0,44894,60,167,-127,724
791,608,0,60773,-0,45437,58,864,-126,099
792,412,0,59827,-0,45976,57,771,-123,336
793,216,0,58894,-0,46658,56,308,-120,667
794,020,0,58001,-0,47178,55,269,-118,250
794,824,0,56794,-0,47733,54,232,-115,153
795,628,0,55925,-0,48231,53,248,-112,985
796,432,0,54781,-0,48561,52,702,-110,292
797,236,0,53870,-0,49102,51,632,-108,178
798,040,0,52821,-0,49699,50,470,-105,836
798,844,0,51615,-0,49973,50,002,-103,284
799,648,0,50670,-0,50281,49,422,-101,340
800,452,0,49725,-0,50628,48,758,-99,451
801,256,0,48816,-0,50916,48,200,-97,685
802,060,0,47800,-0,51229,47,584,-95,768
802,864,0,46609,-0,51586,46,868,-93,593
803,668,0,45637,-0,52039,45,991,-91,887
804,472,0,44523,-0,52220,45,575,-89,963
805,276,0,43288,-0,52664,44,683,-87,924
806,080,0,42197,-0,52864,44,207,-86,157
806,884,0,41150,-0,53091,43,680,-84,514
807,688,0,40182,-0,53259,43,252,-83,026
808,492,0,38895,-0,53455,42,706,-81,099
809,296,0,37587,-0,53746,41,999,-79,224
810,101,0,36614,-0,53756,41,764,-77,822
810,905,0,35264,-0,53884,41,251,-75,954
811,709,0,33939,-0,54001,40,741,-74,176
812,513,0,33007,-0,53882,40,638,-72,899
813,317,0,31695,-0,53767,40,394,-71,154
814,121,0,30566,-0,53719,40,094,-69,703
814,925,0,29237,-0,53540,39,871,-67,997
815,729,0,27943,-0,53484,39,482,-66,417
816,533,0,26955,-0,53277,39,363,-65,179
817,337,0,25577,-0,52986,39,169,-63,484
818,141,0,24516,-0,52713,39,052,-62,188
818,945,0,23371,-0,52520,38,790,-60,855
819,749,0,22153,-0,52156,38,660,-59,400
820,553,0,21183,-0,51739,38,667,-58,205
821,357,0,20028,-0,51408,38,481,-56,878
822,161,0,19040,-0,50955,38,472,-55,683
822,965,0,17964,-0,50628,38,277,-54,479
823,769,0,17007,-0,50174,38,241,-53,346
824,573,0,15981,-0,49716,38,155,-52,163
825,377,0,15090,-0,49243,38,131,-51,111
826,181,0,14020,-0,48835,37,937,-49,947
826,985,0,13182,-0,48337,37,927,-48,955
827,789,0,12178,-0,47789,37,853,-47,806
828,593,0,11245,-0,47389,37,675,-46,813
829,397,0,10121,-0,46759,37,562,-45,553
830,201,0,09219,-0,46201,37,494,-44,528
831,005,0,08178,-0,45587,37,371,-43,377
831,809,0,07330,-0,44833,37,443,-42,304
832,613,0,06395,-0,44116,37,415,-41,199
833,417,0,05486,-0,43439,37,353,-40,148
834,221,0,04593,-0,42594,37,395,-39,017
835,025,0,03785,-0,41779,37,446,-37,971
835,829,0,03137,-0,40974,37,569,-37,043
836,633,0,02425,-0,40122,37,664,-36,046
837,437,0,01740,-0,39357,37,701,-35,128
838,241,0,01218,-0,38496,37,886,-34,250
839,045,0,00429,-0,37682,37,849,-33,246
839,849,-0,00142,-0,36927,37,905,-32,414
840,653,-0,00662,-0,36086,38,029,-31,557
841,457,-0,01315,-0,35310,38,012,-30,673
842,261,-0,01881,-0,34440,38,087,-29,777
843,065,-0,02470,-0,33612,38,109,-28,901
843,869,-0,02875,-0,32750,38,261,-28,097
844,673,-0,03465,-0,31942,38,241,-27,242
845,477,-0,03933,-0,31109,38,305,-26,431
846,281,-0,04346,-0,30223,38,418,-25,609
847,085,-0,04964,-0,29286,38,390,-24,662
847,889,-0,05471,-0,28303,38,444,-23,734
848,693,-0,05866,-0,27399,38,529,-22,912
849,497,-0,06394,-0,26443,38,522,-22,001
850,302,-0,06791,-0,25455,38,606,-21,121
851,106,-0,07199,-0,24398,38,691,-20,186
851,910,-0,07590,-0,23318,38,776,-19,241
852,714,-0,07884,-0,22130,38,949,-18,246
853,518,-0,08197,-0,20895,39,101,-17,207
854,322,-0,08415,-0,19741,39,278,-16,257
855,126,-0,08559,-0,18448,39,530,-15,214
855,930,-0,08566,-0,17218,39,850,-14,250
856,734,-0,08498,-0,15949,40,218,-13,262
857,538,-0,08272,-0,14761,40,674,-12,362
858,342,-0,08030,-0,13564,41,130,-11,442
859,146,-0,07779,-0,12404,41,569,-10,539
859,950,-0,07403,-0,11300,42,088,-9,689
860,754,-0,07008,-0,10285,42,596,-8,900
861,558,-0,06586,-0,09221,43,124,-8,056
862,362,-0,06141,-0,08274,43,645,-7,300
863,166,-0,05600,-0,07335,44,242,-6,546
863,970,-0,05152,-0,06469,44,742,-5,829
864,774,-0,04495,-0,05626,45,422,-5,137
865,578,-0,03889,-0,04831,46,049,-4,467
866,382,-0,03252,-0,04084,46,699,-3,825
867,186,-0,02613,-0,03397,47,347,-3,223
867,990,-0,01950,-0,02750,48,016,-2,644
868,794,-0,01266,-0,02160,48,705,-2,105
869,598,-0,00629,-0,01653,49,348,-1,632
870,402,0,00032,-0,01159,50,018,-1,160
871,206,0,00683,-0,00722,50,682,-0,732
872,010,0,01351,-0,00307,51,368,-0,315
872,814,0,01985,0,00057,52,026,0,059
873,618,0,02646,0,00433,52,715,0,457
874,422,0,03211,0,00730,53,312,0,779
875,226,0,03820,0,01014,53,960,1,096
876,030,0,04446,0,01261,54,635,1,381
876,834,0,05032,0,01453,55,274,1,611
877,638,0,05566,0,01665,55,861,1,867
878,442,0,06136,0,01826,56,497,2,071
879,246,0,06670,0,01912,57,101,2,194
880,050,0,07173,0,02094,57,673,2,429
880,854,0,07637,0,02134,58,210,2,501
881,658,0,08069,0,02250,58,712,2,661
882,462,0,08487,0,02303,59,205,2,749
883,266,0,08862,0,02373,59,649,2,854
884,070,0,09175,0,02457,60,021,2,976
884,874,0,09522,0,02547,60,436,3,109
885,678,0,09856,0,02712,60,833,3,335
886,482,0,10105,0,02803,61,132,3,466
887,286,0,10426,0,02990,61,515,3,723
888,090,0,10735,0,03158,61,886,3,959
888,894,0,11043,0,03399,62,250,4,289
889,698,0,11385,0,03577,62,664,4,548
890,503,0,11750,0,03765,63,109,4,826
891,307,0,12139,0,03960,63,585,5,119
892,111,0,12581,0,04146,64,135,5,412
892,915,0,13044,0,04325,64,717,5,706
893,719,0,13492,0,04454,65,290,5,936
894,523,0,13972,0,04582,65,912,6,173
895,327,0,14390,0,04662,66,463,6,342
896,131,0,14914,0,04762,67,160,6,557
896,935,0,15380,0,04790,67,797,6,668
897,739,0,15840,0,04823,68,433,6,786
898,543,0,16170,0,04891,68,885,6,936
899,347,0,16627,0,04929,69,525,7,066
900,151,0,17108,0,04994,70,202,7,241
900,955,0,17539,0,04958,70,833,7,265
901,759,0,17948,0,04996,71,424,7,393
902,563,0,18400,0,04981,72,094,7,452
903,367,0,18884,0,05060,72,802,7,661
904,171,0,19375,0,05001,73,556,7,664
904,975,0,19817,0,05000,74,232,7,747
905,779,0,20321,0,04858,75,039,7,624
906,583,0,20761,0,04849,75,730,7,695
907,387,0,21259,0,04785,76,531,7,688
908,191,0,21714,0,04580,77,301,7,447
908,995,0,22169,0,04570,78,043,7,518
909,799,0,22598,0,04375,78,785,7,280
910,603,0,23117,0,04177,79,685,7,045
911,407,0,23528,0,04023,80,406,6,861
912,211,0,24032,0,03946,81,279,6,819
913,015,0,24350,0,03738,81,867,6,516
913,819,0,24826,0,03478,82,741,6,141
914,623,0,25230,0,03279,83,486,5,854
915,427,0,25687,0,02972,84,350,5,374
916,231,0,26038,0,02776,85,015,5,067
917,035,0,26405,0,02512,85,721,4,633
917,839,0,26798,0,02291,86,475,4,272
918,643,0,27093,0,01922,87,065,3,613
919,447,0,27352,0,01612,87,582,3,054
920,251,0,27660,0,01355,88,187,2,587
921,055,0,27912,0,01044,88,690,2,009
921,859,0,28178,0,00776,89,217,1,504
922,663,0,28513,0,00534,89,877,1,045
923,467,0,28753,0,00297,90,354,0,585
924,271,0,29017,0,00068,90,878,0,134
925,075,0,29306,-0,00182,91,454,-0,364
925,879,0,29624,-0,00373,92,091,-0,752
926,683,0,29937,-0,00532,92,720,-1,083
927,487,0,30263,-0,00826,93,376,-1,698
928,291,0,30586,-0,01013,94,033,-2,102
929,095,0,30983,-0,01360,94,835,-2,855
929,899,0,31396,-0,01654,95,678,-3,513
930,704,0,31763,-0,01950,96,429,-4,185
931,508,0,32178,-0,02261,97,280,-4,910
932,312,0,32507,-0,02654,97,935,-5,818
933,116,0,32842,-0,03060,98,594,-6,772
933,920,0,33144,-0,03519,99,161,-7,850
934,724,0,33442,-0,03959,99,716,-8,905
935,528,0,33745,-0,04494,100,242,-10,191
936,332,0,33990,-0,04958,100,643,-11,314
937,136,0,34224,-0,05481,100,983,-12,580
937,940,0,34403,-0,06016,101,175,-13,865
938,744,0,34598,-0,06559,101,377,-15,182
939,548,0,34788,-0,07055,101,571,-16,397
940,352,0,34950,-0,07456,101,734,-17,392
941,156,0,35095,-0,07969,101,783,-18,637
941,960,0,35180,-0,08677,101,558,-20,287
942,764,0,35352,-0,09161,101,638,-21,487
943,568,0,35461,-0,09592,101,597,-22,531
944,372,0,35528,-0,10280,101,260,-24,117
945,176,0,35602,-0,10723,101,094,-25,159
945,980,0,35654,-0,11250,100,800,-26,364
946,784,0,35748,-0,11891,100,483,-27,849
947,588,0,35714,-0,12412,99,964,-28,954
948,392,0,35629,-0,13024,99,241,-30,196
949,196,0,35661,-0,13585,98,794,-31,417
950,000,0,35644,-0,14092,98,277,-32,468
