Freq (MHz),re(S11),im(S11),re(Z),im(Z)
390,000,0,57798,0,12760,167,110,65,643
390,402,0,61540,0,16447,169,813,94,001
390,804,0,48437,0,00412,143,925,1,549
391,206,0,53064,0,04670,160,967,20,989
391,608,0,42623,-0,05022,122,962,-15,137
392,010,0,42302,-0,05930,121,503,-17,628
392,412,0,41978,-0,06880,119,958,-20,154
392,814,0,41589,-0,07769,118,226,-22,374
393,216,0,41188,-0,08731,116,367,-24,698
393,618,0,40695,-0,09263,114,604,-25,709
394,020,0,40260,-0,10016,112,816,-27,297
394,422,0,39822,-0,11011,110,791,-29,421
394,824,0,39238,-0,11342,109,035,-29,685
395,226,0,38765,-0,12103,107,167,-31,064
395,628,0,38219,-0,13393,104,597,-33,514
396,030,0,37628,-0,13262,103,393,-32,617
396,432,0,36996,-0,14652,100,576,-35,018
396,834,0,36384,-0,15132,98,775,-35,388
397,236,0,35701,-0,15866,96,598,-36,173
397,638,0,35050,-0,16970,94,125,-37,656
398,040,0,34296,-0,17610,91,998,-38,059
398,442,0,33630,-0,17941,90,411,-37,956
398,844,0,32884,-0,18539,88,434,-38,239
399,246,0,32186,-0,18821,86,916,-37,999
399,648,0,31333,-0,19645,84,613,-38,511
400,050,0,30570,-0,20263,82,725,-38,736
400,452,0,29742,-0,20684,80,980,-38,560
400,854,0,29058,-0,20729,79,872,-37,948
401,256,0,28273,-0,21027,78,384,-37,636
401,658,0,27703,-0,20986,77,570,-37,030
402,060,0,26951,-0,21159,76,298,-36,583
402,462,0,32820,-0,22574,83,752,-44,943
402,864,0,26041,-0,20731,75,361,-35,140
403,266,0,25175,-0,21087,73,811,-34,893
403,668,0,24524,-0,21214,72,792,-34,514
404,070,0,23815,-0,21378,71,678,-34,144
404,472,0,22891,-0,21707,70,164,-33,828
404,874,0,22181,-0,21808,69,146,-33,389
405,276,0,26201,-0,19966,76,262,-34,160
405,678,0,20941,-0,21884,67,485,-32,521
406,080,0,20543,-0,21752,67,079,-32,051
406,482,0,19151,-0,22335,64,917,-31,747
406,884,0,18087,-0,22632,63,422,-31,338
407,286,0,17436,-0,22609,62,670,-30,853
407,688,0,24952,-0,24928,70,007,-39,862
408,090,0,17976,-0,21451,64,111,-29,842
408,492,0,23199,-0,24541,68,144,-37,751
408,894,0,21441,-0,20703,69,027,-31,368
409,296,0,16010,-0,21315,61,858,-28,388
409,698,0,14905,-0,21426,60,510,-27,826
410,101,0,27340,-0,29291,68,389,-47,725
410,503,0,22047,-0,24072,67,114,-36,165
410,905,0,17659,-0,21279,63,843,-29,420
411,307,0,19550,-0,25934,62,599,-36,298
411,709,0,15661,-0,20676,61,846,-27,420
412,111,0,17133,-0,20681,63,600,-28,351
412,513,0,19890,-0,26574,62,455,-37,303
412,915,0,11569,-0,20162,57,494,-24,508
413,317,0,11001,-0,19995,56,963,-24,030
413,719,0,14031,-0,21820,59,281,-27,737
414,121,0,11767,-0,19762,57,922,-24,172
414,523,0,10733,-0,19550,56,896,-23,410
414,925,0,12237,-0,19762,58,444,-24,419
415,327,0,11345,-0,19623,57,529,-23,800
415,729,0,11163,-0,19594,57,344,-23,676
416,131,0,13260,-0,20710,59,070,-26,042
416,533,0,09569,-0,19132,55,844,-22,393
416,935,0,12968,-0,23139,57,315,-28,531
417,337,0,09533,-0,19171,55,787,-22,417
417,739,0,10075,-0,19818,56,053,-23,372
418,141,0,10239,-0,20206,56,034,-23,868
418,543,0,07732,-0,18394,54,238,-20,780
418,945,0,06783,-0,17957,53,438,-19,927
419,347,0,09138,-0,29734,49,411,-32,531
419,749,0,06451,-0,17789,53,165,-19,618
420,151,0,05425,-0,17172,52,362,-18,586
420,553,0,06490,-0,17889,53,165,-19,737
420,955,0,05353,-0,17028,52,343,-18,413
421,357,0,04366,-0,16317,51,608,-17,336
421,759,0,04135,-0,16063,51,464,-17,001
422,161,0,03810,-0,15714,51,259,-16,542
422,563,0,03841,-0,15587,51,332,-16,425
422,965,0,04673,-0,16338,51,908,-17,466
423,367,0,03370,-0,14922,51,077,-15,609
423,769,0,04364,-0,16262,51,625,-17,280
424,171,0,04226,-0,15940,51,598,-16,909
424,573,0,03471,-0,14658,51,261,-15,376
424,975,0,03297,-0,14275,51,204,-14,940
425,377,0,03109,-0,13717,51,181,-14,325
425,779,0,03786,-0,14902,51,500,-15,721
426,181,0,03439,-0,14304,51,338,-15,011
426,583,0,03373,-0,22496,48,170,-22,855
426,985,0,03592,-0,14175,51,531,-14,928
427,387,0,02760,-0,19624,48,814,-19,941
427,789,0,02237,-0,16874,49,329,-17,144
428,191,0,03212,-0,12262,51,686,-12,883
428,593,0,03643,-0,14545,51,468,-15,317
428,995,0,03675,-0,13615,51,782,-14,386
429,397,0,03453,-0,13773,51,511,-14,481
429,799,0,02516,-0,18084,49,169,-18,397
430,201,0,03547,-0,12275,52,025,-12,984
430,603,0,03647,-0,13152,51,887,-13,907
431,005,-0,04791,-0,23368,40,907,-20,272
431,407,0,03662,-0,12353,52,122,-13,094
431,809,-0,00434,-0,15268,47,319,-14,794
432,211,0,00971,-0,16758,48,169,-16,613
432,613,-0,13897,-0,25500,33,608,-18,719
433,015,-0,08021,-0,22339,38,777,-18,359
433,417,0,03129,-0,13753,51,191,-14,366
433,819,-0,03515,-0,18938,43,475,-17,101
434,221,-0,03250,-0,18683,43,782,-16,969
434,623,0,02097,-0,15031,49,790,-15,320
435,025,-0,03409,-0,17944,43,877,-16,290
435,427,-0,10554,-0,20397,37,476,-16,139
435,829,-0,02854,-0,17166,44,591,-15,787
436,231,-0,02629,-0,17030,44,827,-15,735
436,633,-0,03299,-0,17421,44,129,-15,875
437,035,-0,05406,-0,15906,42,759,-13,998
437,437,-0,03183,-0,12653,45,479,-11,708
437,839,0,02871,-0,10812,51,695,-11,321
438,241,0,02736,-0,10877,51,543,-11,356
438,643,0,02515,-0,10994,51,292,-11,423
439,045,0,02342,-0,10938,51,130,-11,327
439,447,-0,04313,-0,11392,44,736,-10,346
439,849,-0,00313,-0,13716,47,859,-13,381
440,251,0,00420,-0,12862,48,774,-12,758
440,653,-0,00562,-0,12731,47,873,-12,391
441,055,-0,00617,-0,12947,47,768,-12,580
441,457,-0,01386,-0,13291,46,967,-12,711
441,859,-0,06205,-0,14677,42,393,-12,769
442,261,-0,10701,-0,12657,39,168,-10,195
442,663,-0,21166,-0,08405,32,136,-5,697
443,065,-0,16826,-0,09339,35,054,-6,799
443,467,-0,00623,-0,11202,48,164,-10,928
443,869,-0,07313,-0,09734,42,425,-8,384
444,271,-0,12309,-0,08549,38,527,-6,739
444,673,-0,12912,-0,11626,37,636,-9,023
445,075,-0,10254,-0,09593,40,018,-7,832
445,477,-0,18573,-0,03346,34,269,-2,378
445,879,-0,16794,-0,04059,35,517,-2,972
446,281,-0,15859,-0,03075,36,251,-2,289
446,683,-0,17482,-0,05069,34,961,-3,666
447,085,-0,11418,-0,03036,39,686,-2,444
447,487,-0,15883,-0,02593,36,251,-1,930
447,889,-0,18135,-0,02682,34,606,-1,921
448,291,-0,21204,0,05315,32,347,3,611
448,693,-0,20924,0,06030,32,491,4,114
449,095,-0,20481,0,06630,32,750,4,554
449,497,-0,20081,0,07357,32,966,5,083
449,899,-0,19737,0,07477,33,192,5,195
450,302,-0,19250,0,08440,33,439,5,905
450,704,-0,19149,0,07210,33,622,5,060
451,106,-0,18763,0,07624,33,856,5,383
451,508,-0,18552,0,06913,34,065,4,902
451,910,-0,18185,0,07320,34,290,5,221
452,312,-0,15804,0,06441,36,086,4,788
452,714,-0,15391,0,00603,36,660,0,453
453,116,-0,12856,0,00510,38,606,0,400
453,518,-0,12768,-0,03896,38,572,-3,060
453,920,-0,14734,-0,01399,37,145,-1,062
454,322,-0,13936,-0,02204,37,735,-1,697
454,724,-0,15099,0,00716,36,878,0,541
455,126,-0,14651,0,09395,36,639,7,100
455,528,-0,03225,-0,03161,46,785,-2,964
455,930,-0,08459,-0,06063,41,913,-5,138
456,332,-0,09897,-0,05774,40,744,-4,768
456,734,-0,12142,0,01012,39,166,0,804
457,136,-0,09182,0,06186,41,297,5,173
457,538,-0,07519,-0,07440,42,564,-6,405
457,940,-0,08951,-0,01600,41,765,-1,347
458,342,-0,04917,0,02229,45,270,2,024
458,744,-0,08147,0,15569,40,589,13,041
459,146,-0,07886,0,11651,41,622,9,894
459,548,-0,07368,0,12157,41,958,10,412
459,950,-0,06122,0,16235,42,077,14,086
460,352,-0,05626,0,17176,42,235,14,999
460,754,-0,04340,0,16155,43,596,14,492
461,156,-0,04699,0,09972,44,653,9,015
461,558,-0,04526,0,13260,44,155,11,944
461,960,-0,02573,0,17461,44,746,16,128
462,362,-0,02210,0,13579,46,141,12,773
462,764,-0,00962,0,09567,48,165,9,302
463,166,-0,01389,0,06870,48,179,6,653
463,568,-0,02216,-0,04894,47,608,-4,673
463,970,0,00644,0,14183,48,638,14,081
464,372,-0,01959,0,02117,48,036,2,035
464,774,0,00057,0,07849,49,444,7,810
465,176,-0,01935,0,01907,48,067,1,835
465,578,0,03067,0,16970,50,096,17,524
465,980,0,01745,0,12625,50,123,12,865
466,382,0,03964,0,16913,50,995,17,786
466,784,-0,00124,0,03425,49,760,3,413
467,186,0,02513,0,10178,51,472,10,594
467,588,-0,02409,-0,02179,47,603,-2,077
467,990,-0,02124,-0,01096,47,909,-1,051
468,392,0,06954,0,19874,52,784,21,954
468,794,0,00585,0,05899,50,236,5,948
469,196,0,03110,0,08946,52,338,9,450
469,598,-0,02634,0,02953,47,353,2,801
470,000,-0,00560,0,04278,49,263,4,223
