# MHz S MA R 50
!   freq        S11       
 790.000  0.50378   26.62
 790.804  0.50192   23.58
 791.608  0.50185   20.66
 792.412  0.50024   17.82
 793.216  0.50707   14.77
 794.020  0.50589   12.03
 794.824  0.50276    9.01
 795.628  0.50006    6.11
 796.432  0.49721    3.00
 797.236  0.49406    0.23
 798.040  0.49040   -2.55
 798.844  0.48596   -5.65
 799.648  0.48085   -8.59
 800.452  0.47726  -11.39
 801.256  0.47267  -14.18
 802.060  0.46816  -17.18
 802.864  0.46391  -20.16
 803.668  0.45867  -22.95
 804.472  0.45284  -25.85
 805.276  0.44715  -28.97
 806.080  0.44166  -31.86
 806.884  0.43707  -34.87
 807.688  0.43177  -37.66
 808.492  0.42557  -40.72
 809.296  0.41984  -43.77
 810.101  0.41427  -46.80
 810.905  0.40834  -50.00
 811.709  0.40247  -53.13
 812.513  0.39275  -56.06
 813.317  0.38617  -59.31
 814.121  0.38111  -62.41
 814.925  0.37497  -65.67
 815.729  0.36924  -68.95
 816.533  0.36390  -72.28
 817.337  0.35796  -75.71
 818.141  0.35280  -79.19
 818.945  0.34743  -82.70
 819.749  0.34176  -86.23
 820.553  0.33662  -89.78
 821.357  0.33101  -93.31
 822.161  0.32621  -96.92
 822.965  0.32086 -100.80
 823.769  0.31636 -104.36
 824.573  0.31170 -108.32
 825.377  0.30749 -111.95
 826.181  0.30330 -116.08
 826.985  0.29893 -119.68
 827.789  0.29517 -124.02
 828.593  0.29260 -127.96
 829.397  0.28865 -132.21
 830.201  0.28524 -136.23
 831.005  0.28299 -140.42
 831.809  0.27924 -144.40
 832.613  0.27711 -148.92
 833.417  0.27499 -153.32
 834.221  0.27280 -157.74
 835.025  0.27070 -161.81
 835.829  0.26907 -165.96
 836.633  0.26859 -170.33
 837.437  0.26771 -174.68
 838.241  0.26736 -179.07
 839.045  0.26653  176.42
 839.849  0.26726  172.11
 840.653  0.26763  167.73
 841.457  0.26797  163.40
 842.261  0.26886  159.22
 843.065  0.27008  154.74
 843.869  0.27097  150.63
 844.673  0.27243  146.33
 845.477  0.27418  142.05
 846.281  0.27515  138.08
 847.085  0.27701  133.94
 847.889  0.27765  129.57
 848.693  0.27929  125.78
 849.497  0.27974  121.65
 850.302  0.28149  117.78
 851.106  0.28287  113.67
 851.910  0.28378  109.67
 852.714  0.28420  105.94
 853.518  0.28494  101.90
 854.322  0.28493   98.36
 855.126  0.28488   94.59
 855.930  0.28473   90.74
 856.734  0.28417   87.22
 857.538  0.28338   83.86
 858.342  0.28238   80.23
 859.146  0.28142   77.09
 859.950  0.27994   73.64
 860.754  0.27943   70.44
 861.558  0.27755   67.04
 862.362  0.27603   63.87
 863.166  0.27457   60.76
 863.970  0.27408   57.54
 864.774  0.27140   54.60
 865.578  0.26910   51.50
 866.382  0.26683   48.41
 867.186  0.26413   45.80
 867.990  0.26191   42.81
 868.794  0.25915   39.70
 869.598  0.25669   36.84
 870.402  0.25372   33.77
 871.206  0.25089   31.09
 872.010  0.24705   28.42
 872.814  0.24409   25.28
 873.618  0.24115   22.69
 874.422  0.23729   19.51
 875.226  0.23398   16.67
 876.030  0.23041   13.66
 876.834  0.22634   10.82
 877.638  0.22281    7.80
 878.442  0.21836    4.56
 879.246  0.21421    1.52
 880.050  0.20914   -1.42
 880.854  0.20424   -5.15
 881.658  0.19898   -8.17
 882.462  0.19345  -11.50
 883.266  0.18818  -15.03
 884.070  0.18218  -18.13
 884.874  0.17646  -21.77
 885.678  0.17012  -25.06
 886.482  0.16406  -28.68
 887.286  0.15839  -32.13
 888.090  0.15241  -36.03
 888.894  0.14634  -39.85
 889.698  0.13995  -44.03
 890.503  0.13401  -48.36
 891.307  0.12783  -53.00
 892.111  0.12205  -57.65
 892.915  0.11616  -62.72
 893.719  0.11021  -67.93
 894.523  0.10464  -73.62
 895.327  0.09935  -79.87
 896.131  0.09427  -86.55
 896.935  0.08995  -93.56
 897.739  0.08618 -101.05
 898.543  0.08309 -109.01
 899.347  0.08120 -117.81
 900.151  0.07959 -126.81
 900.955  0.07955 -135.89
 901.759  0.08043 -145.31
 902.563  0.08243 -154.53
 903.367  0.08531 -163.36
 904.171  0.08942 -171.73
 904.975  0.09423 -179.87
 905.779  0.09960  172.87
 906.583  0.10559  165.92
 907.387  0.11195  159.31
 908.191  0.11882  153.49
 908.995  0.12586  148.03
 909.799  0.13292  142.33
 910.603  0.14068  137.33
 911.407  0.14829  132.67
 912.211  0.15670  128.37
 913.015  0.16421  124.02
 913.819  0.17191  119.67
 914.623  0.17939  115.37
 915.427  0.18700  111.44
 916.231  0.19387  107.59
 917.035  0.20124  103.87
 917.839  0.20853  100.48
 918.643  0.21465   96.80
 919.447  0.22117   93.50
 920.251  0.22789   90.00
 921.055  0.23375   86.59
 921.859  0.24010   83.69
 922.663  0.24533   80.46
 923.467  0.25064   77.31
 924.271  0.25593   74.17
 925.075  0.26067   71.23
 925.879  0.26586   68.37
 926.683  0.27140   65.44
 927.487  0.27578   62.45
 928.291  0.28003   59.74
 929.095  0.28467   56.55
 929.899  0.28982   53.77
 930.704  0.29473   50.89
 931.508  0.29916   48.02
 932.312  0.30356   45.43
 933.116  0.30752   42.30
 933.920  0.31086   39.64
 934.724  0.31407   36.95
 935.528  0.31603   34.06
 936.332  0.31744   31.31
 937.136  0.31987   28.49
 937.940  0.32107   25.77
 938.744  0.32318   22.94
 939.548  0.32478   20.36
 940.352  0.32563   17.60
 941.156  0.32629   14.90
 941.960  0.32739   11.74
 942.764  0.32739    8.96
 943.568  0.32774    6.25
 944.372  0.32746    3.47
 945.176  0.32606    0.56
 945.980  0.32471   -2.35
 946.784  0.32424   -5.05
 947.588  0.32366   -7.82
 948.392  0.32283  -10.79
 949.196  0.32240  -13.50
 950.000  0.32170  -16.61
